CITIFILE A.01.00
NAME DATA
VAR freq MAG 12
DATA S[1,1] MA
DATA S[1,2] MA
DATA S[1,3] MA
DATA S[1,4] MA
DATA S[2,1] MA
DATA S[2,2] MA
DATA S[2,3] MA
DATA S[2,4] MA
DATA S[3,1] MA
DATA S[3,2] MA
DATA S[3,3] MA
DATA S[3,4] MA
DATA S[4,1] MA
DATA S[4,2] MA
DATA S[4,3] MA
DATA S[4,4] MA
DATA Gamma[1] MA
DATA Gamma[2] MA
DATA Gamma[3] MA
DATA Gamma[4] MA
DATA PortZ[1] MA
DATA PortZ[2] MA
DATA PortZ[3] MA
DATA PortZ[4] MA
VAR_LIST_BEGIN
		5000000000
		10000000000
		15000000000
		20000000000
		25000000000
		30000000000
		35000000000
		40000000000
		45000000000
		50000000000
		55000000000
		60000000000
VAR_LIST_END
BEGIN
9.993692243725852E-01 , 1.776698273015162E+02 
9.988956127408468E-01 , 1.753580336951553E+02 
9.983325590224652E-01 , 1.730468510821162E+02 
9.976546078481954E-01 , 1.707328370944842E+02 
9.968508216131143E-01 , 1.684134398214481E+02 
9.959139612497082E-01 , 1.660862338261759E+02 
9.948373988077150E-01 , 1.637486879687444E+02 
9.936136158515654E-01 , 1.613980352577836E+02 
9.922331045654141E-01 , 1.590311511408127E+02 
9.906832454645138E-01 , 1.566443890799457E+02 
9.889468103066296E-01 , 1.542333101549316E+02 
9.869994561177106E-01 , 1.517921770116529E+02 
END
BEGIN
5.775239242865839E-04 , -1.277616049564093E+02 
1.305222292533822E-03 , -1.475032226264883E+02 
2.336671547468385E-03 , -1.632913399018642E+02 
3.706241322323708E-03 , -1.758196790538991E+02 
5.417942780164052E-03 , 1.737766514333893E+02 
7.466343817640254E-03 , 1.647441960966583E+02 
9.844488036458156E-03 , 1.566343714036089E+02 
1.254761677334305E-02 , 1.491813406248636E+02 
1.557571654138174E-02 , 1.422245946779616E+02 
1.893627401836577E-02 , 1.356655814322462E+02 
2.264860604497345E-02 , 1.294452380237521E+02 
2.675234779183270E-02 , 1.235370258902147E+02 
END
BEGIN
1.106719627927453E-02 , 8.711614074481568E+01 
2.186435589633416E-02 , 8.706519220154907E+01 
3.261798828943794E-02 , 8.669814811044907E+01 
4.335709377365467E-02 , 8.623096012965330E+01 
5.409951378504380E-02 , 8.571918010321825E+01 
6.486206480706959E-02 , 8.518380642278858E+01 
7.566351255717657E-02 , 8.463366348313738E+01 
8.652600606329409E-02 , 8.407173531619469E+01 
9.747610841747399E-02 , 8.349738395670157E+01 
1.085459319247924E-01 , 8.290710185762788E+01 
1.197748782464614E-01 , 8.229445698725864E+01 
1.312128802278676E-01 , 8.164913022134401E+01 
END
BEGIN
5.336566446608386E-03 , -9.607177918228557E+01 
1.054196940077812E-02 , -9.997862897313476E+01 
1.567662983035071E-02 , -1.040824365632677E+02 
2.073171743857320E-02 , -1.082214569899880E+02 
2.569806449871895E-02 , -1.123493372828444E+02 
3.057100695385675E-02 , -1.164458006518558E+02 
3.535240329054755E-02 , -1.205012401401843E+02 
4.005201370960002E-02 , -1.245127431407443E+02 
4.468881269672042E-02 , -1.284830584721384E+02 
4.929272440517375E-02 , -1.324206349726313E+02 
5.390763464691056E-02 , -1.363402537227522E+02 
5.859770555790502E-02 , -1.402641942216893E+02 
END
BEGIN
5.465748405611084E-04 , -1.211696228031145E+02 
1.137249866503015E-03 , -1.367406698415120E+02 
1.894320934718729E-03 , -1.508836239693346E+02 
2.854107043301004E-03 , -1.629005897850178E+02 
4.028965705428694E-03 , -1.731269713612939E+02 
5.420025379651939E-03 , 1.780067416181965E+02 
7.023874906365146E-03 , 1.701643121961209E+02 
8.836027061139491E-03 , 1.631143693335924E+02 
1.085281215200430E-02 , 1.567058238929824E+02 
1.307249680287467E-02 , 1.508442505615599E+02 
1.549591445868516E-02 , 1.454767284253737E+02 
1.812640647283945E-02 , 1.405878495493495E+02 
END
BEGIN
9.966410856753558E-01 , 1.756554604323879E+02 
9.912173327264920E-01 , 1.713931584935128E+02 
9.830776605307395E-01 , 1.671752602491972E+02 
9.723236725374552E-01 , 1.630087489545565E+02 
9.591442564736652E-01 , 1.589022528830005E+02 
9.437709295399203E-01 , 1.548634131888479E+02 
9.264555605208185E-01 , 1.508980943385797E+02 
9.074529600599183E-01 , 1.470100541246020E+02 
8.870054667288413E-01 , 1.432007716174363E+02 
8.653284046335350E-01 , 1.394692845190669E+02 
8.425949092834613E-01 , 1.358118835399480E+02 
8.189167838401810E-01 , 1.322213736685733E+02 
END
BEGIN
6.343538138393277E-03 , -9.584745310765443E+01 
1.254519561939171E-02 , -9.996529530135533E+01 
1.864665219729944E-02 , -1.042262836240707E+02 
2.462603176172980E-02 , -1.084999782488145E+02 
3.046258946355950E-02 , -1.127467242042317E+02 
3.614156716751401E-02 , -1.169471794779961E+02 
4.165626143757970E-02 , -1.210901369934195E+02 
4.700940022874910E-02 , -1.251692060074638E+02 
5.221440837505285E-02 , -1.291816619851370E+02 
5.729705387976502E-02 , -1.331279437397461E+02 
6.229827739878550E-02 , -1.370113012479075E+02 
6.727999232938209E-02 , -1.408372986860358E+02 
END
BEGIN
5.627890405116098E-02 , 8.464753703344789E+01 
1.109477409254244E-01 , 8.157838494482084E+01 
1.644954856604874E-01 , 7.829819940270677E+01 
2.166482558654095E-01 , 7.498331219862472E+01 
2.671268272621760E-01 , 7.168513645674182E+01 
3.156943764777436E-01 , 6.842723899193737E+01 
3.621710354479449E-01 , 6.522231965510441E+01 
4.064387268563555E-01 , 6.207692961364924E+01 
4.484415450637790E-01 , 5.899309588031936E+01 
4.881842720851884E-01 , 5.596887086983135E+01 
5.257312836806901E-01 , 5.299834973972522E+01 
5.612091049559014E-01 , 5.007127419435761E+01 
END
BEGIN
1.106759911055836E-02 , 8.722881847408780E+01 
2.186998906523751E-02 , 8.729134976806348E+01 
3.263875888744300E-02 , 8.703675893037459E+01 
4.340755140810261E-02 , 8.668047646378368E+01 
5.419840645511206E-02 , 8.627784556054728E+01 
6.503188967496781E-02 , 8.584998677637510E+01 
7.593012510045546E-02 , 8.540624028095628E+01 
8.691836147531219E-02 , 8.495059482792701E+01 
9.802622091916327E-02 , 8.448406066955947E+01 
1.092891651314610E-01 , 8.400569581765855E+01 
1.207507417213624E-01 , 8.351307964421399E+01 
1.324666449543784E-01 , 8.300248677146327E+01 
END
BEGIN
6.343062385736905E-03 , -9.646170856482320E+01 
1.254109469672010E-02 , -1.011966865346607E+02 
1.863284269961577E-02 , -1.060810924968788E+02 
2.459358037781470E-02 , -1.109883258500819E+02 
3.039971269794099E-02 , -1.158829307553521E+02 
3.603354413229766E-02 , -1.207502870488582E+02 
4.148523765663636E-02 , -1.255846124704968E+02 
4.675407042562396E-02 , -1.303858789049071E+02 
5.184958078512008E-02 , -1.351590019603001E+02 
5.679310978410313E-02 , -1.399138556912604E+02 
6.162054166999688E-02 , -1.446657273228193E+02 
6.638801709408276E-02 , -1.494360969152730E+02 
END
BEGIN
9.992897802407933E-01 , -1.785034037961028E+02 
9.985414993815314E-01 , -1.769865702234557E+02 
9.975252179085379E-01 , -1.754645602803990E+02 
9.962297958316342E-01 , -1.739386559506756E+02 
9.946615235378302E-01 , -1.724094429753093E+02 
9.928323905202288E-01 , -1.708775640733358E+02 
9.907557184695549E-01 , -1.693439271438043E+02 
9.884433195234473E-01 , -1.678097815990939E+02 
9.859031175646615E-01 , -1.662767477583591E+02 
9.831368611730410E-01 , -1.647468363467944E+02 
9.801375749849803E-01 , -1.632224880374723E+02 
9.768860589373686E-01 , -1.617066719558506E+02 
END
BEGIN
1.344799193884188E-02 , -9.246436439004256E+01 
2.668380210719220E-02 , -9.407796836725045E+01 
3.969616874464563E-02 , -9.573751111281662E+01 
5.241383975506358E-02 , -9.738005838210357E+01 
6.477250586764680E-02 , -9.898462811929230E+01 
7.672132439745998E-02 , -1.005407411536092E+02 
8.822606522473639E-02 , -1.020432464375297E+02 
9.927101708712657E-02 , -1.034910543499421E+02 
1.098601821339402E-01 , -1.048868627489766E+02 
1.200181642519586E-01 , -1.062373113812155E+02 
1.297913752859386E-01 , -1.075535004825688E+02 
1.392507987204742E-01 , -1.088519877099731E+02 
END
BEGIN
5.337549667317984E-03 , -9.440437024216695E+01 
1.054604698779492E-02 , -9.664677752850184E+01 
1.568691716230493E-02 , -9.908155624102001E+01 
2.075242635843052E-02 , -1.015432455447032E+02 
2.573454497488523E-02 , -1.039817611653867E+02 
3.062991489577134E-02 , -1.063728389913430E+02 
3.544207426820922E-02 , -1.087026144938735E+02 
4.018309970837845E-02 , -1.109636937590391E+02 
4.487527551975461E-02 , -1.131541985683748E+02 
4.955345010813175E-02 , -1.152780024668087E+02 
5.426941197388897E-02 , -1.173460760219533E+02 
5.910161126757475E-02 , -1.193802569065220E+02 
END
BEGIN
5.627885863169260E-02 , 8.447038741490626E+01 
1.109469362610663E-01 , 8.122288598854266E+01 
1.644923834703588E-01 , 7.776201119707956E+01 
2.166404983493021E-01 , 7.426282463096624E+01 
2.671112295920210E-01 , 7.077531210274718E+01 
3.156668965751784E-01 , 6.732137818894552E+01 
3.621267018000059E-01 , 6.391171375827973E+01 
4.063714969522637E-01 , 6.055034403725524E+01 
4.483440453979917E-01 , 5.723597641672865E+01 
4.880473156956080E-01 , 5.396206542672847E+01 
5.255429193033817E-01 , 5.071589966551367E+01 
5.609525415300451E-01 , 4.747618588046899E+01 
END
BEGIN
1.345184386212652E-02 , -9.199320020743149E+01 
2.669738474675526E-02 , -9.314259866234595E+01 
3.972712994449419E-02 , -9.433546042307393E+01 
5.247216176470738E-02 , -9.550579035785493E+01 
6.487058888384743E-02 , -9.662975722866054E+01 
7.687399163514767E-02 , -9.769389297472586E+01 
8.845056299052674E-02 , -9.868984910761330E+01 
9.958705886955777E-02 , -9.961315344903316E+01 
1.102900924020042E-01 , -1.004630313448144E+02 
1.205871955481073E-01 , -1.012427812420044E+02 
1.305282889346197E-01 , -1.019608539279877E+02 
1.401887651752483E-01 , -1.026334582973531E+02 
END
BEGIN
9.964558783904142E-01 , 1.770160477531553E+02 
9.907304527570837E-01 , 1.741151909247462E+02 
9.821373026342406E-01 , 1.712532471714391E+02 
9.707778201345160E-01 , 1.684334173703668E+02 
9.568443047094475E-01 , 1.656604118378636E+02 
9.405728203735368E-01 , 1.629374944835935E+02 
9.222196793168173E-01 , 1.602654214161057E+02 
9.020429262281173E-01 , 1.576417755902621E+02 
8.802857072909487E-01 , 1.550603367325187E+02 
8.571602505370480E-01 , 1.525102656795823E+02 
8.328307184660687E-01 , 1.499748371501995E+02 
8.073910702105189E-01 , 1.474292363421648E+02 
END
BEGIN
7.409931136690510E+01 , 9.000000000000000E+01 
1.481986227338100E+02 , 9.000000000000000E+01 
2.222979341007150E+02 , 9.000000000000000E+01 
2.963972454676210E+02 , 9.000000000000000E+01 
3.704965568345260E+02 , 9.000000000000000E+01 
4.445958682014310E+02 , 9.000000000000000E+01 
5.186951795683360E+02 , 9.000000000000000E+01 
5.927944909352410E+02 , 9.000000000000000E+01 
6.668938023021460E+02 , 9.000000000000000E+01 
7.409931136690510E+02 , 9.000000000000000E+01 
8.150924250359560E+02 , 9.000000000000000E+01 
8.891917364028616E+02 , 9.000000000000000E+01 
END
BEGIN
7.409931136690510E+01 , 9.000000000000000E+01 
1.481986227338100E+02 , 9.000000000000000E+01 
2.222979341007150E+02 , 9.000000000000000E+01 
2.963972454676210E+02 , 9.000000000000000E+01 
3.704965568345260E+02 , 9.000000000000000E+01 
4.445958682014310E+02 , 9.000000000000000E+01 
5.186951795683360E+02 , 9.000000000000000E+01 
5.927944909352410E+02 , 9.000000000000000E+01 
6.668938023021460E+02 , 9.000000000000000E+01 
7.409931136690510E+02 , 9.000000000000000E+01 
8.150924250359560E+02 , 9.000000000000000E+01 
8.891917364028616E+02 , 9.000000000000000E+01 
END
BEGIN
7.409931136690510E+01 , 9.000000000000000E+01 
1.481986227338100E+02 , 9.000000000000000E+01 
2.222979341007150E+02 , 9.000000000000000E+01 
2.963972454676210E+02 , 9.000000000000000E+01 
3.704965568345260E+02 , 9.000000000000000E+01 
4.445958682014310E+02 , 9.000000000000000E+01 
5.186951795683360E+02 , 9.000000000000000E+01 
5.927944909352410E+02 , 9.000000000000000E+01 
6.668938023021460E+02 , 9.000000000000000E+01 
7.409931136690510E+02 , 9.000000000000000E+01 
8.150924250359560E+02 , 9.000000000000000E+01 
8.891917364028616E+02 , 9.000000000000000E+01 
END
BEGIN
7.409931136690510E+01 , 9.000000000000000E+01 
1.481986227338100E+02 , 9.000000000000000E+01 
2.222979341007150E+02 , 9.000000000000000E+01 
2.963972454676210E+02 , 9.000000000000000E+01 
3.704965568345260E+02 , 9.000000000000000E+01 
4.445958682014310E+02 , 9.000000000000000E+01 
5.186951795683360E+02 , 9.000000000000000E+01 
5.927944909352410E+02 , 9.000000000000000E+01 
6.668938023021460E+02 , 9.000000000000000E+01 
7.409931136690510E+02 , 9.000000000000000E+01 
8.150924250359560E+02 , 9.000000000000000E+01 
8.891917364028616E+02 , 9.000000000000000E+01 
END
BEGIN
5.327771186536140E+02 , 0.000000000000000E+00 
5.327771186536140E+02 , 0.000000000000000E+00 
5.327771186536140E+02 , 0.000000000000000E+00 
5.327771186536140E+02 , 0.000000000000000E+00 
5.327771186536140E+02 , 0.000000000000000E+00 
5.327771186536140E+02 , 0.000000000000000E+00 
5.327771186536140E+02 , 0.000000000000000E+00 
5.327771186536140E+02 , 0.000000000000000E+00 
5.327771186536130E+02 , 0.000000000000000E+00 
5.327771186536140E+02 , 0.000000000000000E+00 
5.327771186536130E+02 , 0.000000000000000E+00 
5.327771186536136E+02 , -0.000000000000000E+00 
END
BEGIN
2.663885593268070E+02 , 0.000000000000000E+00 
2.663885593268070E+02 , 0.000000000000000E+00 
2.663885593268070E+02 , 0.000000000000000E+00 
2.663885593268070E+02 , 0.000000000000000E+00 
2.663885593268070E+02 , 0.000000000000000E+00 
2.663885593268070E+02 , 0.000000000000000E+00 
2.663885593268070E+02 , 0.000000000000000E+00 
2.663885593268070E+02 , 0.000000000000000E+00 
2.663885593268070E+02 , 0.000000000000000E+00 
2.663885593268070E+02 , 0.000000000000000E+00 
2.663885593268070E+02 , 0.000000000000000E+00 
2.663885593268067E+02 , -0.000000000000000E+00 
END
BEGIN
5.327771186536140E+02 , 0.000000000000000E+00 
5.327771186536140E+02 , 0.000000000000000E+00 
5.327771186536140E+02 , 0.000000000000000E+00 
5.327771186536140E+02 , 0.000000000000000E+00 
5.327771186536140E+02 , 0.000000000000000E+00 
5.327771186536140E+02 , 0.000000000000000E+00 
5.327771186536140E+02 , 0.000000000000000E+00 
5.327771186536140E+02 , 0.000000000000000E+00 
5.327771186536130E+02 , 0.000000000000000E+00 
5.327771186536140E+02 , 0.000000000000000E+00 
5.327771186536130E+02 , 0.000000000000000E+00 
5.327771186536136E+02 , -0.000000000000000E+00 
END
BEGIN
2.663885593268070E+02 , 0.000000000000000E+00 
2.663885593268070E+02 , 0.000000000000000E+00 
2.663885593268070E+02 , 0.000000000000000E+00 
2.663885593268070E+02 , 0.000000000000000E+00 
2.663885593268070E+02 , 0.000000000000000E+00 
2.663885593268070E+02 , 0.000000000000000E+00 
2.663885593268070E+02 , 0.000000000000000E+00 
2.663885593268070E+02 , 0.000000000000000E+00 
2.663885593268070E+02 , 0.000000000000000E+00 
2.663885593268070E+02 , 0.000000000000000E+00 
2.663885593268070E+02 , 0.000000000000000E+00 
2.663885593268067E+02 , -0.000000000000000E+00 
END
